
T3F68 000:060 SEGGER J-Link V6.12c Log File (0000ms, 0015ms total)
T3F68 000:060 DLL Compiled: Dec 16 2016 17:24:18 (0000ms, 0015ms total)
T3F68 000:060 Logging started @ 2019-10-02 22:52 (0000ms, 0015ms total)
T3F68 000:060 JLINK_SetWarnOutHandler(...) (0000ms, 0015ms total)
T3F68 000:060 JLINK_OpenEx(...)
Firmware: J-Link ARM-OB STM32 compiled Aug 22 2012 19:52:04
Hardware: V7.00
S/N: 305760245
Feature(s): RDI,FlashDL,FlashBP,JFlash,GDBFullWEBSRV Webserver running on local port 19080 (0008ms, 0023ms total)
T3F68 000:060   returns O.K. (0008ms, 0023ms total)
T3F68 000:068 JLINK_SetErrorOutHandler(...) (0000ms, 0023ms total)
T3F68 000:068 JLINK_ExecCommand("ProjectFile = "C:\Users\Wings\Desktop\Keil Workspace\PMSMDriver_F446\MDK-ARM\JLinkSettings.ini"", ...).   returns 0x00 (0067ms, 0090ms total)
T3F68 000:136 JLINK_ExecCommand("Device = STM32F446RETx", ...). Device "STM32F446RE" selected.  returns 0x00 (0000ms, 0090ms total)
T3F68 000:136 JLINK_ExecCommand("DisableConnectionTimeout", ...).   returns 0x01 (0000ms, 0090ms total)
T3F68 000:136 JLINK_GetHardwareVersion()  returns 0x11170 (0000ms, 0090ms total)
T3F68 000:136 JLINK_GetDLLVersion()  returns 61203 (0000ms, 0090ms total)
T3F68 000:136 JLINK_GetFirmwareString(...) (0000ms, 0090ms total)
T3F68 000:136 JLINK_GetDLLVersion()  returns 61203 (0000ms, 0090ms total)
T3F68 000:136 JLINK_GetCompileDateTime() (0000ms, 0090ms total)
T3F68 000:136 JLINK_GetFirmwareString(...) (0000ms, 0090ms total)
T3F68 000:136 JLINK_GetHardwareVersion()  returns 0x11170 (0000ms, 0090ms total)
T3F68 000:136 JLINK_TIF_Select(JLINKARM_TIF_SWD)  returns 0x00 (0001ms, 0091ms total)
T3F68 000:137 JLINK_SetSpeed(5000) (0000ms, 0091ms total)
T3F68 000:137 JLINK_GetId() >0x108 TIF>Found SWD-DP with ID 0x2BA01477 >0x0D TIF> >0x28 TIF> >0x0D TIF> >0x28 TIF> >0x0D TIF> >0x28 TIF> >0x0D TIF> >0x28 TIF> >0x0D TIF> >0x21 TIF> >0x0D TIF> >0x28 TIF> >0x0D TIF> >0x28 TIF> >0x0D TIF> >0x28 TIF> >0x0D TIF> >0x21 TIF> >0x0D TIF> >0x21 TIF> >0x0D TIF> >0x28 TIF> >0x0D TIF> >0x21 TIF> >0x0D TIF> >0x21 TIF> >0x0D TIF> >0x28 TIF> >0x0D TIF> >0x21 TIF> >0x0D TIF> >0x21 TIF> >0x0D TIF> >0x28 TIF> >0x0D TIF> >0x21 TIF> >0x0D TIF> >0x21 TIF> >0x0D TIF>
 >0x28 TIF> >0x0D TIF> >0x21 TIF> >0x0D TIF> >0x21 TIF> >0x0D TIF> >0x28 TIF> >0x0D TIF> >0x21 TIF> >0x0D TIF> >0x21 TIF> >0x108 TIF>Found SWD-DP with ID 0x2BA01477 >0x0D TIF> >0x28 TIF> >0x0D TIF> >0x28 TIF> >0x0D TIF> >0x28 TIF> >0x0D TIF> >0x28 TIF> >0x0D TIF> >0x21 TIF> >0x0D TIF> >0x28 TIF> >0x0D TIF> >0x28 TIF> >0x0D TIF> >0x21 TIF> >0x0D TIF> >0x21 TIF> >0x0D TIF> >0x21 TIF>AP-IDR: 0x24770011, Type: AHB-APAHB-AP ROM: 0xE00FF000 (Base addr. of first ROM table) >0x0D TIF> >0x28 TIF> >0x0D TIF>
 >0x28 TIF> >0x0D TIF> >0x28 TIF> >0x0D TIF> >0x21 TIF> >0x0D TIF> >0x21 TIF> >0x0D TIF> >0x28 TIF> >0x0D TIF> >0x21 TIF> >0x0D TIF> >0x21 TIF>Found Cortex-M4 r0p1, Little endian. -- CPU_ReadMem(4 bytes @ 0xE000EDF0) -- CPU_ReadMem(4 bytes @ 0xE0002000)FPUnit: 6 code (BP) slots and 2 literal slots -- CPU_ReadMem(4 bytes @ 0xE000EDFC) -- CPU_ReadMem(4 bytes @ 0xE0001000) -- CPU_WriteMem(4 bytes @ 0xE0001000) -- CPU_ReadMem(4 bytes @ 0xE000ED88) -- CPU_WriteMem(4 bytes @ 0xE000ED88)
 -- CPU_ReadMem(4 bytes @ 0xE000ED88) -- CPU_WriteMem(4 bytes @ 0xE000ED88)CoreSight components:ROMTbl 0 @ E00FF000 -- CPU_ReadMem(16 bytes @ 0xE00FF000) -- CPU_ReadMem(16 bytes @ 0xE000EFF0) -- CPU_ReadMem(16 bytes @ 0xE000EFE0)ROMTbl 0 [0]: FFF0F000, CID: B105E00D, PID: 000BB00C SCS -- CPU_ReadMem(16 bytes @ 0xE0001FF0) -- CPU_ReadMem(16 bytes @ 0xE0001FE0)ROMTbl 0 [1]: FFF02000, CID: B105E00D, PID: 003BB002 DWT -- CPU_ReadMem(16 bytes @ 0xE0002FF0) -- CPU_ReadMem(16 bytes @ 0xE0002FE0)
ROMTbl 0 [2]: FFF03000, CID: B105E00D, PID: 002BB003 FPB -- CPU_ReadMem(16 bytes @ 0xE0000FF0) -- CPU_ReadMem(16 bytes @ 0xE0000FE0)ROMTbl 0 [3]: FFF01000, CID: B105E00D, PID: 003BB001 ITM -- CPU_ReadMem(16 bytes @ 0xE00FF010) -- CPU_ReadMem(16 bytes @ 0xE0040FF0) -- CPU_ReadMem(16 bytes @ 0xE0040FE0)ROMTbl 0 [4]: FFF41000, CID: B105900D, PID: 000BB9A1 TPIU -- CPU_ReadMem(16 bytes @ 0xE0041FF0) -- CPU_ReadMem(16 bytes @ 0xE0041FE0)ROMTbl 0 [5]: FFF42000, CID: B105900D, PID: 000BB925 ETM >0x0D TIF>
 >0x21 TIF>  returns 0x2BA01477 (0027ms, 0118ms total)
T3F68 000:164 JLINK_GetDLLVersion()  returns 61203 (0000ms, 0118ms total)
T3F68 000:164 JLINK_CORE_GetFound()  returns 0xE0000FF (0000ms, 0118ms total)
T3F68 000:164 JLINK_GetDebugInfo(0x100) -- Value=0xE00FF000  returns 0x00 (0000ms, 0118ms total)
T3F68 000:164 JLINK_ReadMem (0xE00FF000, 0x0020 Bytes, ...) -- CPU is running -- CPU_ReadMem(32 bytes @ 0xE00FF000) - Data: 03 F0 F0 FF 03 20 F0 FF 03 30 F0 FF 03 10 F0 FF ...  returns 0x00 (0001ms, 0119ms total)
T3F68 000:165 JLINK_ReadMem (0xE000EFF0, 0x0010 Bytes, ...) -- CPU is running -- CPU_ReadMem(16 bytes @ 0xE000EFF0) - Data: 0D 00 00 00 E0 00 00 00 05 00 00 00 B1 00 00 00  returns 0x00 (0000ms, 0119ms total)
T3F68 000:165 JLINK_ReadMem (0xE000EFD0, 0x0020 Bytes, ...) -- CPU is running -- CPU_ReadMem(32 bytes @ 0xE000EFD0) - Data: 04 00 00 00 00 00 00 00 00 00 00 00 00 00 00 00 ...  returns 0x00 (0001ms, 0120ms total)
T3F68 000:166 JLINK_ReadMem (0xE0001FF0, 0x0010 Bytes, ...) -- CPU is running -- CPU_ReadMem(16 bytes @ 0xE0001FF0) - Data: 0D 00 00 00 E0 00 00 00 05 00 00 00 B1 00 00 00  returns 0x00 (0001ms, 0121ms total)
T3F68 000:167 JLINK_ReadMem (0xE0001FD0, 0x0020 Bytes, ...) -- CPU is running -- CPU_ReadMem(32 bytes @ 0xE0001FD0) - Data: 04 00 00 00 00 00 00 00 00 00 00 00 00 00 00 00 ...  returns 0x00 (0000ms, 0121ms total)
T3F68 000:167 JLINK_ReadMem (0xE0002FF0, 0x0010 Bytes, ...) -- CPU is running -- CPU_ReadMem(16 bytes @ 0xE0002FF0) - Data: 0D 00 00 00 E0 00 00 00 05 00 00 00 B1 00 00 00  returns 0x00 (0001ms, 0122ms total)
T3F68 000:168 JLINK_ReadMem (0xE0002FD0, 0x0020 Bytes, ...) -- CPU is running -- CPU_ReadMem(32 bytes @ 0xE0002FD0) - Data: 04 00 00 00 00 00 00 00 00 00 00 00 00 00 00 00 ...  returns 0x00 (0001ms, 0123ms total)
T3F68 000:169 JLINK_ReadMem (0xE0000FF0, 0x0010 Bytes, ...) -- CPU is running -- CPU_ReadMem(16 bytes @ 0xE0000FF0) - Data: 0D 00 00 00 E0 00 00 00 05 00 00 00 B1 00 00 00  returns 0x00 (0000ms, 0123ms total)
T3F68 000:169 JLINK_ReadMem (0xE0000FD0, 0x0020 Bytes, ...) -- CPU is running -- CPU_ReadMem(32 bytes @ 0xE0000FD0) - Data: 04 00 00 00 00 00 00 00 00 00 00 00 00 00 00 00 ...  returns 0x00 (0001ms, 0124ms total)
T3F68 000:170 JLINK_ReadMem (0xE0040FF0, 0x0010 Bytes, ...) -- CPU is running -- CPU_ReadMem(16 bytes @ 0xE0040FF0) - Data: 0D 00 00 00 90 00 00 00 05 00 00 00 B1 00 00 00  returns 0x00 (0001ms, 0125ms total)
T3F68 000:171 JLINK_ReadMem (0xE0040FD0, 0x0020 Bytes, ...) -- CPU is running -- CPU_ReadMem(32 bytes @ 0xE0040FD0) - Data: 04 00 00 00 00 00 00 00 00 00 00 00 00 00 00 00 ...  returns 0x00 (0001ms, 0126ms total)
T3F68 000:172 JLINK_ReadMem (0xE0041FF0, 0x0010 Bytes, ...) -- CPU is running -- CPU_ReadMem(16 bytes @ 0xE0041FF0) - Data: 0D 00 00 00 90 00 00 00 05 00 00 00 B1 00 00 00  returns 0x00 (0000ms, 0126ms total)
T3F68 000:172 JLINK_ReadMem (0xE0041FD0, 0x0020 Bytes, ...) -- CPU is running -- CPU_ReadMem(32 bytes @ 0xE0041FD0) - Data: 04 00 00 00 00 00 00 00 00 00 00 00 00 00 00 00 ...  returns 0x00 (0001ms, 0127ms total)
T3F68 000:173 JLINK_ReadMemU32(0xE000EF40, 0x0001 Items, ...) -- CPU is running -- CPU_ReadMem(4 bytes @ 0xE000EF40) - Data: 21 00 11 10  returns 0x01 (0001ms, 0128ms total)
T3F68 000:174 JLINK_ReadMemU32(0xE000EF44, 0x0001 Items, ...) -- CPU is running -- CPU_ReadMem(4 bytes @ 0xE000EF44) - Data: 11 00 00 11  returns 0x01 (0000ms, 0128ms total)
T3F68 000:174 JLINK_ReadMemU32(0xE000ED00, 0x0001 Items, ...) -- CPU is running -- CPU_ReadMem(4 bytes @ 0xE000ED00) - Data: 41 C2 0F 41  returns 0x01 (0001ms, 0129ms total)
T3F68 000:175 JLINK_SetResetType(JLINKARM_CM3_RESET_TYPE_NORMAL)  returns JLINKARM_CM3_RESET_TYPE_NORMAL (0000ms, 0129ms total)
T3F68 000:175 JLINK_Reset() -- CPU is running -- CPU_WriteMem(4 bytes @ 0xE000EDF0) -- CPU is running -- CPU_WriteMem(4 bytes @ 0xE000EDFC) >0x35 TIF> -- CPU is running -- CPU_WriteMem(4 bytes @ 0xE000ED0C) -- CPU is running -- CPU_ReadMem(4 bytes @ 0xE000EDF0) -- CPU is running -- CPU_ReadMem(4 bytes @ 0xE000EDF0) -- CPU is running -- CPU_WriteMem(4 bytes @ 0xE000EDF0) -- CPU is running -- CPU_WriteMem(4 bytes @ 0xE000EDFC) -- CPU is running -- CPU_ReadMem(4 bytes @ 0xE000EDF0)
 -- CPU_WriteMem(4 bytes @ 0xE0002000) -- CPU_ReadMem(4 bytes @ 0xE000EDFC) -- CPU_ReadMem(4 bytes @ 0xE0001000) (0018ms, 0147ms total)
T3F68 000:193 JLINK_ReadReg(R15 (PC))  returns 0x08000304 (0000ms, 0147ms total)
T3F68 000:193 JLINK_ReadReg(XPSR)  returns 0x01000000 (0000ms, 0147ms total)
T3F68 000:193 JLINK_Halt()  returns 0x00 (0000ms, 0147ms total)
T3F68 000:193 JLINK_IsHalted()  returns TRUE (0000ms, 0147ms total)
T3F68 000:193 JLINK_ReadMemU32(0xE000EDF0, 0x0001 Items, ...) -- CPU_ReadMem(4 bytes @ 0xE000EDF0) - Data: 03 00 03 00  returns 0x01 (0000ms, 0147ms total)
T3F68 000:193 JLINK_WriteU32(0xE000EDF0, 0xA05F0003) -- CPU_WriteMem(4 bytes @ 0xE000EDF0)  returns 0x00 (0001ms, 0148ms total)
T3F68 000:194 JLINK_WriteU32(0xE000EDFC, 0x01000000) -- CPU_WriteMem(4 bytes @ 0xE000EDFC)  returns 0x00 (0000ms, 0148ms total)
T3F68 000:194 JLINK_GetHWStatus(...)  returns 0x00 (0000ms, 0148ms total)
T3F68 000:194 JLINK_GetNumBPUnits(Type = 0xFFFFFF00)  returns 0x06 (0000ms, 0148ms total)
T3F68 000:194 JLINK_GetNumBPUnits(Type = 0xF0)  returns 0x2000 (0000ms, 0148ms total)
T3F68 000:194 JLINK_GetNumWPUnits()  returns 0x04 (0000ms, 0148ms total)
T3F68 000:194 JLINK_GetSpeed()  returns 0xFA0 (0000ms, 0148ms total)
T3F68 000:194 JLINK_ReadMemU32(0xE000E004, 0x0001 Items, ...) -- CPU_ReadMem(4 bytes @ 0xE000E004) - Data: 03 00 00 00  returns 0x01 (0001ms, 0149ms total)
T3F68 000:195 JLINK_ReadMemU32(0xE000E004, 0x0001 Items, ...) -- CPU_ReadMem(4 bytes @ 0xE000E004) - Data: 03 00 00 00  returns 0x01 (0000ms, 0149ms total)
T3F68 000:195 JLINK_WriteMem(0xE0001000, 0x001C Bytes, ...) - Data: 01 00 00 00 00 00 00 00 00 00 00 00 00 00 00 00 ... -- CPU_WriteMem(28 bytes @ 0xE0001000)  returns 0x1C (0001ms, 0150ms total)
T3F68 000:196 JLINK_ReadMem (0xE0001000, 0x001C Bytes, ...) -- CPU_ReadMem(28 bytes @ 0xE0001000) - Data: 01 00 00 40 00 00 00 00 00 00 00 00 00 00 00 00 ...  returns 0x00 (0001ms, 0151ms total)
T3F68 000:197 JLINK_ReadReg(R15 (PC))  returns 0x08000304 (0000ms, 0151ms total)
T3F68 000:197 JLINK_ReadReg(XPSR)  returns 0x01000000 (0000ms, 0151ms total)
T3F68 000:197 JLINK_WriteU32(0xE0041FB0, 0xC5ACCE55) -- CPU_WriteMem(4 bytes @ 0xE0041FB0)  returns 0x00 (0000ms, 0151ms total)
T3F68 000:197 JLINK_ReadMemU32(0xE0041000, 0x0001 Items, ...) -- CPU_ReadMem(4 bytes @ 0xE0041000) - Data: 11 04 00 00  returns 0x01 (0001ms, 0152ms total)
T3F68 000:198 JLINK_WriteU32(0xE0041000, 0x00000410) -- CPU_WriteMem(4 bytes @ 0xE0041000)  returns 0x00 (0000ms, 0152ms total)
T3F68 000:200 JLINK_SWO_Control(JLINKARM_SWO_CMD_GET_SPEED_INFO, ...)  returns 0x00 (0000ms, 0152ms total)
T3F68 000:200 JLINK_SWO_Control(JLINKARM_SWO_CMD_STOP, ...)  returns 0x00 (0000ms, 0152ms total)
T3F68 000:200 JLINK_SWO_Control(JLINKARM_SWO_CMD_START, ...) -- UART -- 1111111bps -- CPU_ReadMem(4 bytes @ 0xE0042004) -- CPU_WriteMem(4 bytes @ 0xE0042004)  returns 0x00 (0002ms, 0154ms total)
T3F68 000:202 JLINK_WriteU32(0xE0040004, 0x00000001) -- CPU_WriteMem(4 bytes @ 0xE0040004)  returns 0x00 (0000ms, 0154ms total)
T3F68 000:202 JLINK_WriteU32(0xE0040010, 0x00000008)  returns 0x00 (0001ms, 0155ms total)
T3F68 000:203 JLINK_WriteU32(0xE00400F0, 0x00000002)  returns 0x00 (0000ms, 0155ms total)
T3F68 000:203 JLINK_WriteU32(0xE0040304, 0x00000000)  returns 0x00 (0000ms, 0155ms total)
T3F68 000:203 JLINK_WriteU32(0xE0000FB0, 0xC5ACCE55) -- CPU_WriteMem(4 bytes @ 0xE0000FB0)  returns 0x00 (0000ms, 0155ms total)
T3F68 000:203 JLINK_WriteU32(0xE0000E80, 0x0001000D)  returns 0x00 (0000ms, 0155ms total)
T3F68 000:203 JLINK_WriteU32(0xE0000E00, 0x00000001)  returns 0x00 (0000ms, 0155ms total)
T3F68 000:203 JLINK_WriteU32(0xE0000E40, 0x00000000)  returns 0x00 (0000ms, 0155ms total)
T3F68 000:203 JLINK_WriteU32(0xE0001000, 0x0001061F)  returns 0x00 (0000ms, 0155ms total)
T3F68 000:221 JLINK_ReadMem (0xE0001004, 0x0004 Bytes, ...) - Data: 00 00 00 00  returns 0x00 (0000ms, 0155ms total)
T3F68 000:230 JLINK_WriteMem(0x08000000, 0x0400 Bytes, ...) - Data: 30 1A 00 20 05 03 00 08 A5 36 00 08 A9 36 00 08 ...  returns 0x400 (0000ms, 0155ms total)
T3F68 000:230 JLINK_WriteMem(0x08000400, 0x0400 Bytes, ...) - Data: 0C 46 05 46 01 2A 05 D0 28 78 80 06 00 D5 EA 69 ...  returns 0x400 (0000ms, 0155ms total)
T3F68 000:230 JLINK_WriteMem(0x08000800, 0x0400 Bytes, ...) - Data: 26 F0 20 06 1D E0 D8 F8 18 00 00 EB 80 00 05 EB ...  returns 0x400 (0000ms, 0155ms total)
T3F68 000:230 JLINK_WriteMem(0x08000C00, 0x0400 Bytes, ...) - Data: 44 F6 D3 58 4E F2 10 07 C2 F2 00 01 C4 F2 02 0A ...  returns 0x400 (0000ms, 0155ms total)
T3F68 000:230 JLINK_ReadMem (0x08000000, 0x1000 Bytes, ...) -- Read from flash cache (4096 bytes @ 0x08000000) - Data: 30 1A 00 20 05 03 00 08 A5 36 00 08 A9 36 00 08 ...  returns 0x00 (0000ms, 0155ms total)
T3F68 000:231 JLINK_WriteMem(0x08001000, 0x0400 Bytes, ...) - Data: 00 20 02 F0 0C 02 08 2A C1 D0 32 68 12 1A 8A 42 ...  returns 0x400 (0000ms, 0155ms total)
T3F68 000:231 JLINK_WriteMem(0x08001400, 0x0400 Bytes, ...) - Data: 88 11 19 62 18 60 31 46 53 F8 04 0C 20 F4 80 60 ...  returns 0x400 (0000ms, 0155ms total)
T3F68 000:231 JLINK_WriteMem(0x08001800, 0x0400 Bytes, ...) - Data: 0F F2 2C 73 9A 5C 3F 23 C0 E9 17 12 03 FA 02 F2 ...  returns 0x400 (0000ms, 0155ms total)
T3F68 000:231 JLINK_WriteMem(0x08001C00, 0x0400 Bytes, ...) - Data: 03 FB 09 F3 B3 FB F5 F3 18 F8 06 60 F2 40 0F 26 ...  returns 0x400 (0000ms, 0155ms total)
T3F68 000:231 JLINK_ReadMem (0x08001000, 0x1000 Bytes, ...) -- Read from flash cache (4096 bytes @ 0x08001000) - Data: 00 20 02 F0 0C 02 08 2A C1 D0 32 68 12 1A 8A 42 ...  returns 0x00 (0000ms, 0155ms total)
T3F68 000:231 JLINK_WriteMem(0x08002000, 0x0400 Bytes, ...) - Data: C9 03 00 EB E1 70 00 28 EA D1 43 F2 00 00 41 F2 ...  returns 0x400 (0000ms, 0155ms total)
T3F68 000:231 JLINK_WriteMem(0x08002400, 0x0400 Bytes, ...) - Data: 00 EB E1 70 28 B1 39 68 C9 03 00 EB E1 70 00 28 ...  returns 0x400 (0000ms, 0155ms total)
T3F68 000:231 JLINK_WriteMem(0x08002800, 0x0400 Bytes, ...) - Data: 28 B1 39 68 C9 03 00 EB E1 70 00 28 EA D1 03 F0 ...  returns 0x400 (0000ms, 0155ms total)
T3F68 000:231 JLINK_WriteMem(0x08002C00, 0x0400 Bytes, ...) - Data: C9 03 00 EB E1 70 00 28 EA D1 02 F0 4F FF 03 F0 ...  returns 0x400 (0000ms, 0155ms total)
T3F68 000:231 JLINK_ReadMem (0x08002000, 0x1000 Bytes, ...) -- Read from flash cache (4096 bytes @ 0x08002000) - Data: C9 03 00 EB E1 70 00 28 EA D1 43 F2 00 00 41 F2 ...  returns 0x00 (0000ms, 0155ms total)
T3F68 000:232 JLINK_WriteMem(0x08003000, 0x0400 Bytes, ...) - Data: 41 F2 E8 32 4A F2 00 03 C2 F2 00 02 C4 F2 9E 43 ...  returns 0x400 (0000ms, 0155ms total)
T3F68 000:232 JLINK_WriteMem(0x08003400, 0x0400 Bytes, ...) - Data: 10 BD 00 BF 00 BF 00 BF 00 00 00 00 00 40 8F 40 ...  returns 0x400 (0000ms, 0155ms total)
T3F68 000:232 JLINK_WriteMem(0x08003800, 0x0400 Bytes, ...) - Data: 08 10 DC F8 20 00 B1 F5 80 5F 0D D1 01 88 6F F3 ...  returns 0x400 (0000ms, 0155ms total)
T3F68 000:232 JLINK_WriteMem(0x08003C00, 0x0400 Bytes, ...) - Data: 04 EE 10 0A 41 F2 98 30 B8 EE 44 4A C2 F2 00 00 ...  returns 0x400 (0000ms, 0155ms total)
T3F68 000:232 JLINK_ReadMem (0x08003000, 0x1000 Bytes, ...) -- Read from flash cache (4096 bytes @ 0x08003000) - Data: 41 F2 E8 32 4A F2 00 03 C2 F2 00 02 C4 F2 9E 43 ...  returns 0x00 (0000ms, 0155ms total)
T3F68 000:232 JLINK_WriteMem(0x08004000, 0x0400 Bytes, ...) - Data: 00 0A 41 F2 24 40 C2 F2 00 00 B8 EE C0 3A 92 ED ...  returns 0x400 (0000ms, 0155ms total)
T3F68 000:232 JLINK_WriteMem(0x08004400, 0x0400 Bytes, ...) - Data: 00 4A 23 EE 08 6A 01 EE 48 2A 05 EE 00 6A 02 EE ...  returns 0x400 (0000ms, 0155ms total)
T3F68 000:232 JLINK_WriteMem(0x08004800, 0x0400 Bytes, ...) - Data: 00 04 01 60 48 F6 90 11 20 68 BD EE C0 0A C0 F6 ...  returns 0x400 (0000ms, 0155ms total)
T3F68 000:232 JLINK_WriteMem(0x08004C00, 0x0400 Bytes, ...) - Data: 26 E0 B5 EE C0 2A F1 EE 10 FA 80 F2 6B 82 B5 EE ...  returns 0x400 (0000ms, 0155ms total)
T3F68 000:232 JLINK_ReadMem (0x08004000, 0x1000 Bytes, ...) -- Read from flash cache (4096 bytes @ 0x08004000) - Data: 00 0A 41 F2 24 40 C2 F2 00 00 B8 EE C0 3A 92 ED ...  returns 0x00 (0000ms, 0155ms total)
T3F68 000:233 JLINK_WriteMem(0x08005000, 0x0400 Bytes, ...) - Data: C0 ED 00 0A 00 F0 D8 FA 1F ED 96 0A 97 ED 00 1A ...  returns 0x400 (0000ms, 0156ms total)
T3F68 000:233 JLINK_WriteMem(0x08005400, 0x0400 Bytes, ...) - Data: 03 0A 36 EE 42 6A 11 EE 0C 2A 77 EE 07 1A 27 EE ...  returns 0x400 (0000ms, 0156ms total)
T3F68 000:233 JLINK_WriteMem(0x08005800, 0x0400 Bytes, ...) - Data: 10 FA 03 DC B0 EE 45 3A 80 ED 00 5A 70 B5 2D ED ...  returns 0x400 (0000ms, 0156ms total)
T3F68 000:233 JLINK_WriteMem(0x08005C00, 0x0400 Bytes, ...) - Data: C1 0A 30 EE 03 5A 30 EE 04 6A F1 EE 10 FA B4 EE ...  returns 0x400 (0000ms, 0156ms total)
T3F68 000:233 JLINK_ReadMem (0x08005000, 0x1000 Bytes, ...) -- Read from flash cache (4096 bytes @ 0x08005000) - Data: C0 ED 00 0A 00 F0 D8 FA 1F ED 96 0A 97 ED 00 1A ...  returns 0x00 (0000ms, 0156ms total)
T3F68 000:233 JLINK_WriteMem(0x08006000, 0x0400 Bytes, ...) - Data: 6F 3A 9F ED 6F 4A 00 BF DB 07 D2 07 30 EE 03 5A ...  returns 0x400 (0000ms, 0156ms total)
T3F68 000:233 JLINK_WriteMem(0x08006400, 0x0400 Bytes, ...) - Data: 01 60 20 68 41 68 21 F4 80 71 41 60 21 69 42 68 ...  returns 0x400 (0000ms, 0156ms total)
T3F68 000:233 JLINK_WriteMem(0x08006800, 0x0400 Bytes, ...) - Data: 26 F4 80 54 03 2D 5C 60 08 D0 02 2D 09 D0 01 2D ...  returns 0x400 (0000ms, 0156ms total)
T3F68 000:234 JLINK_WriteMem(0x08006C00, 0x0400 Bytes, ...) - Data: 41 F2 8C 3B 40 F2 88 18 9F ED 81 9A 04 F1 34 07 ...  returns 0x400 (0000ms, 0157ms total)
T3F68 000:234 JLINK_ReadMem (0x08006000, 0x1000 Bytes, ...) -- Read from flash cache (4096 bytes @ 0x08006000) - Data: 6F 3A 9F ED 6F 4A 00 BF DB 07 D2 07 30 EE 03 5A ...  returns 0x00 (0000ms, 0157ms total)
T3F68 000:234 JLINK_WriteMem(0x08007000, 0x0400 Bytes, ...) - Data: 1E BF 20 68 08 21 01 61 F0 06 44 BF 20 68 00 69 ...  returns 0x400 (0000ms, 0157ms total)
T3F68 000:234 JLINK_WriteMem(0x08007400, 0x0400 Bytes, ...) - Data: 01 46 48 BF 41 42 B0 F1 FF 3F 4F EA 11 22 85 F8 ...  returns 0x400 (0000ms, 0157ms total)
T3F68 000:234 JLINK_WriteMem(0x08007800, 0x0400 Bytes, ...) - Data: 4A 69 22 F0 01 02 4A 61 20 21 01 64 41 6C 41 F0 ...  returns 0x400 (0000ms, 0157ms total)
T3F68 000:234 JLINK_WriteMem(0x08007C00, 0x0400 Bytes, ...) - Data: 41 0C 1C F5 00 1F 02 D2 08 46 00 F0 85 BA 70 B5 ...  returns 0x400 (0000ms, 0157ms total)
T3F68 000:234 JLINK_ReadMem (0x08007000, 0x1000 Bytes, ...) -- Read from flash cache (4096 bytes @ 0x08007000) - Data: 1E BF 20 68 08 21 01 61 F0 06 44 BF 20 68 00 69 ...  returns 0x00 (0000ms, 0157ms total)
T3F68 000:234 JLINK_WriteMem(0x08008000, 0x0400 Bytes, ...) - Data: F0 41 70 B5 FF F7 EA FE 6D DB FF BE BD E8 F0 41 ...  returns 0x400 (0001ms, 0158ms total)
T3F68 000:235 JLINK_WriteMem(0x08008400, 0x0400 Bytes, ...) - Data: 5E 83 6C 3F 0C 4B 6B 3F A7 09 6A 3F 3C BF 68 3F ...  returns 0x400 (0000ms, 0158ms total)
T3F68 000:235 JLINK_WriteMem(0x08008800, 0x02E0 Bytes, ...) - Data: 5E 83 6C BF 0C 4B 6B BF A7 09 6A BF 3C BF 68 BF ...  returns 0x2E0 (0000ms, 0158ms total)
T3F68 000:235 JLINK_ReadMem (0x08008000, 0x0AE0 Bytes, ...) -- Read from flash cache (2784 bytes @ 0x08008000) - Data: F0 41 70 B5 FF F7 EA FE 6D DB FF BE BD E8 F0 41 ...  returns 0x00 (0000ms, 0158ms total)
T3F68 000:287 JLINK_SetResetType(JLINKARM_CM3_RESET_TYPE_NORMAL)  returns JLINKARM_CM3_RESET_TYPE_NORMAL (0000ms, 0158ms total)
T3F68 000:287 JLINK_Reset()Old firmware which does not support pausing periodic actions during flash download -- -------------------------------------- -- Start of determining dirty areas in flash cache -- End of determining dirty areas -- Start of preparing flash programming -- Calculating RAM usage -- RAM usage = 3908 Bytes -- Preserving CPU registers -- Preparing memory -- Determining CPU clock frequency -- Preparing target -- Downloading RAMCode -- Checking target RAM -- Preparing RAMCode
 -- End of preparing flash programming -- CPU is running at 72000 kHz. -- Start of comparing flash -- CRC check was estimated as fastest method -- Comparing range 0x8000000 - 0x800BFFF (3 Sectors, 48 KB), using multi-block CRC calculation -- All CRCs match -- Comparing range 0x8000000 - 0x800BFFF (3 Sectors, 48 KB), using alternative multi-block CRC calculation -- All CRCs match -- End of comparing flash -- Start of erasing sectors -- End of erasing sectors -- Start of flash programming
 -- End of flash programming -- Start of verifying flash -- End of verifying flash -- Start of restoring -- Restoring RAMCode -- Restore target -- Restore memory -- Restoring CPU registers -- End of restoring -- Flash download skipped. Flash contents already match -- Flash download skipped. Flash contents already match -- CPU_WriteMem(4 bytes @ 0xE0002000) -- CPU_ReadMem(4 bytes @ 0xE0002008) -- CPU_WriteMem(4 bytes @ 0xE000EDF4) -- CPU_ReadMem(4 bytes @ 0xE000EDF8) -- CPU_WriteMem(4 bytes @ 0xE0002008)
 -- CPU_WriteMem(4 bytes @ 0xE000EDF8) -- CPU_WriteMem(4 bytes @ 0xE000EDF4) -- CPU_WriteMem(4 bytes @ 0xE000EDF0) -- CPU_WriteMem(4 bytes @ 0xE000EDF0) -- CPU_ReadMem(4 bytes @ 0xE000EDF0) -- CPU_WriteMem(4 bytes @ 0xE000EDF0) -- CPU_WriteMem(4 bytes @ 0xE0002008) -- CPU_WriteMem(4 bytes @ 0xE000EDF8) -- CPU_WriteMem(4 bytes @ 0xE000EDF4) -- CPU_WriteMem(4 bytes @ 0xE000EDF0) -- CPU_WriteMem(4 bytes @ 0xE000EDFC) >0x35 TIF> -- CPU_WriteMem(4 bytes @ 0xE000ED0C) -- CPU_ReadMem(4 bytes @ 0xE000EDF0)
 -- CPU_ReadMem(4 bytes @ 0xE000EDF0) -- CPU_WriteMem(4 bytes @ 0xE000EDF0) -- CPU_WriteMem(4 bytes @ 0xE000EDFC) -- CPU is running -- CPU_ReadMem(4 bytes @ 0xE000EDF0) -- CPU_WriteMem(4 bytes @ 0xE0002000) -- CPU_ReadMem(4 bytes @ 0xE000EDFC) -- CPU_ReadMem(4 bytes @ 0xE0001000) -- CPU_ReadMem(4 bytes @ 0xE0042004) (0135ms, 0293ms total)
T3F68 000:423 JLINK_WriteU32(0xE000EDFC, 0x01000000) -- CPU_WriteMem(4 bytes @ 0xE000EDFC)  returns 0x00 (0000ms, 0294ms total)
T3F68 000:423 JLINK_ReadReg(R15 (PC))  returns 0x08000304 (0000ms, 0294ms total)
T3F68 000:423 JLINK_ReadReg(XPSR)  returns 0x01000000 (0001ms, 0295ms total)
T3F68 000:428 JLINK_ReadMem (0x08000204, 0x003C Bytes, ...) -- Read from flash cache (60 bytes @ 0x08000204) - Data: 78 C8 78 C1 FA D8 52 07 24 BF 30 C8 30 C1 44 BF ...  returns 0x00 (0000ms, 0295ms total)
T3F68 000:428 JLINK_ReadMem (0x08000240, 0x003C Bytes, ...) -- Read from flash cache (60 bytes @ 0x08000240) - Data: 00 F0 87 82 66 29 AF F3 00 80 65 29 AF F3 00 80 ...  returns 0x00 (0000ms, 0295ms total)
T3F68 000:428 JLINK_ReadMem (0x0800027C, 0x003C Bytes, ...) -- Read from flash cache (60 bytes @ 0x0800027C) - Data: 15 82 78 29 00 F0 53 82 E9 29 00 F0 AF 81 E4 29 ...  returns 0x00 (0000ms, 0295ms total)
T3F68 000:428 JLINK_ReadMem (0x080002B8, 0x003C Bytes, ...) -- Read from flash cache (60 bytes @ 0x080002B8) - Data: E3 29 00 F0 DB 83 F3 29 00 F0 E0 83 00 20 70 47 ...  returns 0x00 (0000ms, 0295ms total)
T3F68 000:428 JLINK_ReadMem (0x080002F4, 0x003C Bytes, ...) -- Read from flash cache (60 bytes @ 0x080002F4) - Data: 00 F0 20 FC 03 B4 FF F7 F2 FF 03 BC 00 F0 68 FC ...  returns 0x00 (0000ms, 0295ms total)
T3F68 000:530 JLINK_WriteU32(0xE0001008, 0x00000000)  returns 0x00 (0000ms, 0295ms total)
T3F68 000:530 JLINK_WriteU32(0xE000100C, 0x00000000)  returns 0x00 (0000ms, 0295ms total)
T3F68 000:530 JLINK_WriteU32(0xE0001010, 0x00000000)  returns 0x00 (0000ms, 0295ms total)
T3F68 000:530 JLINK_WriteU32(0xE0001014, 0x00000000)  returns 0x00 (0000ms, 0295ms total)
T3F68 000:530 JLINK_WriteU32(0xE0001018, 0x00000000)  returns 0x00 (0000ms, 0295ms total)
T3F68 000:563 JLINK_ReadMem (0x40006400, 0x001C Bytes, ...) -- CPU_ReadMem(28 bytes @ 0x40006400) - Data: 02 00 01 00 0A 0C 00 00 00 00 00 1C 00 00 00 00 ...  returns 0x00 (0000ms, 0295ms total)
T3F68 000:563 JLINK_ReadMem (0x4000641C, 0x0004 Bytes, ...) -- CPU_ReadMem(4 bytes @ 0x4000641C) - Data: 00 00 23 01  returns 0x00 (0001ms, 0296ms total)
T3F68 000:564 JLINK_ReadMem (0x40006580, 0x004C Bytes, ...) -- CPU_ReadMem(76 bytes @ 0x40006580) - Data: 00 00 00 00 00 00 00 00 00 00 00 00 00 00 00 00 ...  returns 0x00 (0002ms, 0298ms total)
T3F68 000:566 JLINK_ReadMem (0x400065CC, 0x0004 Bytes, ...) -- CPU_ReadMem(4 bytes @ 0x400065CC) - Data: 00 00 00 00  returns 0x00 (0001ms, 0299ms total)
T3F68 000:567 JLINK_ReadMem (0x40006600, 0x0004 Bytes, ...) -- CPU_ReadMem(4 bytes @ 0x40006600) - Data: 01 0E 1C 2A  returns 0x00 (0000ms, 0299ms total)
T3F68 000:567 JLINK_ReadMem (0x40006604, 0x0004 Bytes, ...) -- CPU_ReadMem(4 bytes @ 0x40006604) - Data: 00 00 00 00  returns 0x00 (0001ms, 0300ms total)
T3F68 000:568 JLINK_ReadMem (0x4000660C, 0x0004 Bytes, ...) -- CPU_ReadMem(4 bytes @ 0x4000660C) - Data: 00 00 00 00  returns 0x00 (0000ms, 0300ms total)
T3F68 000:568 JLINK_ReadMem (0x40006614, 0x0004 Bytes, ...) -- CPU_ReadMem(4 bytes @ 0x40006614) - Data: 00 00 00 00  returns 0x00 (0001ms, 0301ms total)
T3F68 000:569 JLINK_ReadMem (0x4000661C, 0x0004 Bytes, ...) -- CPU_ReadMem(4 bytes @ 0x4000661C) - Data: 00 00 00 00  returns 0x00 (0001ms, 0302ms total)
T3F68 000:570 JLINK_ReadMem (0x40006640, 0x00DC Bytes, ...) -- CPU_ReadMem(220 bytes @ 0x40006640) - Data: 00 00 00 00 00 00 00 00 00 00 00 00 00 00 00 00 ...  returns 0x00 (0002ms, 0304ms total)
T3F68 000:572 JLINK_ReadMem (0x4000671C, 0x0004 Bytes, ...) -- CPU_ReadMem(4 bytes @ 0x4000671C) - Data: 00 00 00 00  returns 0x00 (0001ms, 0305ms total)
T3F68 000:607 JLINK_ReadMem (0x40013000, 0x0020 Bytes, ...) -- CPU_ReadMem(32 bytes @ 0x40013000) - Data: 00 00 00 00 00 00 00 00 00 00 00 00 00 00 00 00 ...  returns 0x00 (0001ms, 0306ms total)
T3F68 000:608 JLINK_ReadMem (0x40013020, 0x0004 Bytes, ...) -- CPU_ReadMem(4 bytes @ 0x40013020) - Data: 00 00 00 00  returns 0x00 (0000ms, 0306ms total)
T3F68 000:637 JLINK_ReadMem (0x40003C00, 0x0020 Bytes, ...) -- CPU_ReadMem(32 bytes @ 0x40003C00) - Data: 00 00 00 00 00 00 00 00 00 00 00 00 00 00 00 00 ...  returns 0x00 (0001ms, 0307ms total)
T3F68 000:638 JLINK_ReadMem (0x40003C20, 0x0004 Bytes, ...) -- CPU_ReadMem(4 bytes @ 0x40003C20) - Data: 00 00 00 00  returns 0x00 (0000ms, 0307ms total)
T3F68 000:668 JLINK_ReadMem (0x40000000, 0x0010 Bytes, ...) -- CPU_ReadMem(16 bytes @ 0x40000000) - Data: 00 00 00 00 00 00 00 00 00 00 00 00 00 00 00 00  returns 0x00 (0000ms, 0307ms total)
T3F68 000:668 JLINK_ReadMem (0x40000010, 0x0004 Bytes, ...) -- CPU_ReadMem(4 bytes @ 0x40000010) - Data: 00 00 00 00  returns 0x00 (0001ms, 0308ms total)
T3F68 000:669 JLINK_ReadMem (0x40000018, 0x0014 Bytes, ...) -- CPU_ReadMem(20 bytes @ 0x40000018) - Data: 00 00 00 00 00 00 00 00 00 00 00 00 00 00 00 00 ...  returns 0x00 (0000ms, 0308ms total)
T3F68 000:669 JLINK_ReadMem (0x4000002C, 0x0004 Bytes, ...) -- CPU_ReadMem(4 bytes @ 0x4000002C) - Data: 00 00 00 00  returns 0x00 (0001ms, 0309ms total)
T3F68 000:670 JLINK_ReadMem (0x40000034, 0x000C Bytes, ...) -- CPU_ReadMem(12 bytes @ 0x40000034) - Data: 00 00 00 00 00 00 00 00 00 00 00 00  returns 0x00 (0000ms, 0309ms total)
T3F68 000:670 JLINK_ReadMem (0x40000040, 0x0004 Bytes, ...) -- CPU_ReadMem(4 bytes @ 0x40000040) - Data: 00 00 00 00  returns 0x00 (0001ms, 0310ms total)
T3F68 000:671 JLINK_ReadMem (0x40000048, 0x0008 Bytes, ...) -- CPU_ReadMem(8 bytes @ 0x40000048) - Data: 00 00 00 00 00 00 00 00  returns 0x00 (0000ms, 0310ms total)
T3F68 000:671 JLINK_ReadMem (0x40000050, 0x0004 Bytes, ...) -- CPU_ReadMem(4 bytes @ 0x40000050) - Data: 00 00 00 00  returns 0x00 (0001ms, 0311ms total)
T3F68 001:781 JLINK_ReadMem (0x20000190, 0x0001 Bytes, ...) -- CPU_ReadMem(64 bytes @ 0x20000180) -- Updating C cache (64 bytes @ 0x20000180) -- Read from C cache (1 bytes @ 0x20000190) - Data: 36  returns 0x00 (0001ms, 0312ms total)
T3F68 001:788 JLINK_ReadMem (0x20000194, 0x0004 Bytes, ...) -- Read from C cache (4 bytes @ 0x20000194) - Data: 04 F8 E5 E7  returns 0x00 (0000ms, 0314ms total)
T3F68 001:791 JLINK_ReadMem (0x20000188, 0x0004 Bytes, ...) -- Read from C cache (4 bytes @ 0x20000188) - Data: 8E 60 00 26  returns 0x00 (0000ms, 0314ms total)
T3F68 001:793 JLINK_ReadMem (0x200001A0, 0x0001 Bytes, ...) -- Read from C cache (1 bytes @ 0x200001A0) - Data: 00  returns 0x00 (0000ms, 0314ms total)
T3F68 001:796 JLINK_ReadMem (0x200001A1, 0x0001 Bytes, ...) -- Read from C cache (1 bytes @ 0x200001A1) - Data: F0  returns 0x00 (0000ms, 0314ms total)
T3F68 001:799 JLINK_ReadMem (0x200001A2, 0x0001 Bytes, ...) -- Read from C cache (1 bytes @ 0x200001A2) - Data: C2  returns 0x00 (0000ms, 0314ms total)
T3F68 001:803 JLINK_ReadMem (0x200001A3, 0x0001 Bytes, ...) -- Read from C cache (1 bytes @ 0x200001A3) - Data: F8  returns 0x00 (0000ms, 0314ms total)
T3F68 001:806 JLINK_ReadMem (0x200001A4, 0x0001 Bytes, ...) -- Read from C cache (1 bytes @ 0x200001A4) - Data: FF  returns 0x00 (0000ms, 0314ms total)
T3F68 001:810 JLINK_ReadMem (0x200001A5, 0x0001 Bytes, ...) -- Read from C cache (1 bytes @ 0x200001A5) - Data: 27  returns 0x00 (0000ms, 0314ms total)
T3F68 001:814 JLINK_ReadMem (0x200001A6, 0x0001 Bytes, ...) -- Read from C cache (1 bytes @ 0x200001A6) - Data: 0F  returns 0x00 (0000ms, 0314ms total)
T3F68 001:818 JLINK_ReadMem (0x200001A7, 0x0001 Bytes, ...) -- Read from C cache (1 bytes @ 0x200001A7) - Data: BD  returns 0x00 (0000ms, 0314ms total)
T3F68 001:822 JLINK_ReadMem (0x2000019C, 0x0004 Bytes, ...) -- Read from C cache (4 bytes @ 0x2000019C) - Data: ED E7 0F B5  returns 0x00 (0000ms, 0314ms total)
T3F68 001:827 JLINK_ReadMem (0x200012E4, 0x0004 Bytes, ...) -- CPU_ReadMem(64 bytes @ 0x200012C0) -- Updating C cache (64 bytes @ 0x200012C0) -- Read from C cache (4 bytes @ 0x200012E4) - Data: 00 00 00 00  returns 0x00 (0001ms, 0315ms total)
T2344 001:856 JLINK_SetBPEx(Addr = 0x08000BE8, Type = 0xFFFFFFF2)  returns 0x00000001 (0000ms, 0315ms total)
T2344 001:856 JLINK_ReadMemU32(0xE0001004, 0x0001 Items, ...) - Data: 00 00 00 00  returns 0x01 (0000ms, 0315ms total)
T2344 001:856 JLINK_WriteU32(0xE0001004, 0x000003FF)  returns 0x00 (0000ms, 0315ms total)
T2344 001:856 JLINK_WriteU32(0xE0001000, 0x0041061F)  returns 0x00 (0000ms, 0315ms total)
T2344 001:856 JLINK_WriteU32(0xE0000E80, 0x0001000F)  returns 0x00 (0000ms, 0315ms total)
T2344 001:856 JLINK_SWO_Control(JLINKARM_SWO_CMD_GET_NUM_BYTES, ...)  returns 0x00 (0000ms, 0315ms total)
T2344 001:856 JLINK_Go() -- CPU_WriteMem(4 bytes @ 0xE0002000) -- CPU_WriteMem(4 bytes @ 0xE0001000) -- CPU_ReadMem(4 bytes @ 0xE0001000) -- CPU_WriteMem(4 bytes @ 0xE0000E80) -- CPU_WriteMem(4 bytes @ 0xE0001008) -- CPU_WriteMem(4 bytes @ 0xE000100C) -- CPU_WriteMem(4 bytes @ 0xE0001010) -- CPU_WriteMem(4 bytes @ 0xE0001014) -- CPU_WriteMem(4 bytes @ 0xE0001018) -- CPU_WriteMem(4 bytes @ 0xE0002008) -- CPU_WriteMem(4 bytes @ 0xE000200C) -- CPU_WriteMem(4 bytes @ 0xE0002010)
 -- CPU_WriteMem(4 bytes @ 0xE0002014) -- CPU_WriteMem(4 bytes @ 0xE0002018) -- CPU_WriteMem(4 bytes @ 0xE000201C) -- CPU_WriteMem(4 bytes @ 0xE0001004) (0007ms, 0322ms total)
T2344 001:863 JLINK_WriteU32(0xE0001000, 0x0001061F) -- CPU is running -- CPU_WriteMem(4 bytes @ 0xE0001000)  returns 0x00 (0001ms, 0323ms total)
T2344 001:965 JLINK_SWO_Read(..., Offset = 0x00, NumBytes = 0x400000) - Data:  NumBytesRead = 0x00 (0000ms, 0323ms total)
T2344 001:967 JLINK_SWO_Control(JLINKARM_SWO_CMD_FLUSH, ...)  returns 0x00 (0000ms, 0323ms total)
T2344 001:967 JLINK_IsHalted()  returns TRUE (0003ms, 0326ms total)
T2344 001:970 JLINK_Halt()  returns 0x00 (0000ms, 0323ms total)
T2344 001:970 JLINK_IsHalted()  returns TRUE (0000ms, 0323ms total)
T2344 001:970 JLINK_IsHalted()  returns TRUE (0000ms, 0323ms total)
T2344 001:970 JLINK_IsHalted()  returns TRUE (0000ms, 0323ms total)
T2344 001:970 JLINK_ReadReg(R15 (PC))  returns 0x08000BE8 (0000ms, 0323ms total)
T2344 001:970 JLINK_ReadReg(XPSR)  returns 0x01000000 (0000ms, 0323ms total)
T2344 001:970 JLINK_SWO_Read(..., Offset = 0x00, NumBytes = 0x400000) - Data:  NumBytesRead = 0x00 (0000ms, 0323ms total)
T2344 001:972 JLINK_SWO_Control(JLINKARM_SWO_CMD_FLUSH, ...)  returns 0x00 (0000ms, 0323ms total)
T2344 001:972 JLINK_ClrBPEx(BPHandle = 0x00000001)  returns 0x00 (0000ms, 0323ms total)
T2344 001:972 JLINK_ReadMemU32(0xE000ED30, 0x0001 Items, ...) -- CPU_ReadMem(4 bytes @ 0xE000ED30) - Data: 03 00 00 00  returns 0x01 (0000ms, 0323ms total)
T2344 001:972 JLINK_ReadMemU32(0xE0001028, 0x0001 Items, ...) -- CPU_ReadMem(4 bytes @ 0xE0001028) - Data: 00 00 00 00  returns 0x01 (0001ms, 0324ms total)
T2344 001:973 JLINK_ReadMemU32(0xE0001038, 0x0001 Items, ...) -- CPU_ReadMem(4 bytes @ 0xE0001038) - Data: 00 02 00 00  returns 0x01 (0000ms, 0324ms total)
T2344 001:973 JLINK_ReadMemU32(0xE0001048, 0x0001 Items, ...) -- CPU_ReadMem(4 bytes @ 0xE0001048) - Data: 00 00 00 00  returns 0x01 (0000ms, 0324ms total)
T2344 001:973 JLINK_ReadMemU32(0xE0001058, 0x0001 Items, ...) -- CPU_ReadMem(4 bytes @ 0xE0001058) - Data: 00 00 00 00  returns 0x01 (0001ms, 0325ms total)
T2344 001:974 JLINK_ReadReg(R0)  returns 0x20001430 (0000ms, 0325ms total)
T2344 001:974 JLINK_ReadReg(R1)  returns 0x20001630 (0000ms, 0325ms total)
T2344 001:974 JLINK_ReadReg(R2)  returns 0x20001630 (0000ms, 0325ms total)
T2344 001:974 JLINK_ReadReg(R3)  returns 0x20001630 (0000ms, 0325ms total)
T2344 001:974 JLINK_ReadReg(R4)  returns 0x00000000 (0000ms, 0325ms total)
T2344 001:974 JLINK_ReadReg(R5)  returns 0x20000018 (0000ms, 0325ms total)
T2344 001:974 JLINK_ReadReg(R6)  returns 0x00000000 (0000ms, 0325ms total)
T2344 001:974 JLINK_ReadReg(R7)  returns 0x00000000 (0000ms, 0325ms total)
T2344 001:974 JLINK_ReadReg(R8)  returns 0x00000000 (0000ms, 0325ms total)
T2344 001:974 JLINK_ReadReg(R9)  returns 0x00000000 (0000ms, 0325ms total)
T2344 001:974 JLINK_ReadReg(R10)  returns 0x080089B8 (0000ms, 0325ms total)
T2344 001:974 JLINK_ReadReg(R11)  returns 0x00000000 (0000ms, 0325ms total)
T2344 001:974 JLINK_ReadReg(R12)  returns 0x20000058 (0000ms, 0325ms total)
T2344 001:974 JLINK_ReadReg(R13 (SP))  returns 0x20001A30 (0000ms, 0325ms total)
T2344 001:974 JLINK_ReadReg(R14)  returns 0x080002F5 (0000ms, 0325ms total)
T2344 001:974 JLINK_ReadReg(R15 (PC))  returns 0x08000BE8 (0000ms, 0325ms total)
T2344 001:974 JLINK_ReadReg(XPSR)  returns 0x01000000 (0000ms, 0325ms total)
T2344 001:974 JLINK_ReadReg(MSP)  returns 0x20001A30 (0000ms, 0325ms total)
T2344 001:974 JLINK_ReadReg(PSP)  returns 0x00000000 (0000ms, 0325ms total)
T2344 001:974 JLINK_ReadReg(CFBP)  returns 0x04000000 (0000ms, 0325ms total)
T2344 001:974 JLINK_ReadReg(FPSCR)  returns 0x03000000 (0005ms, 0330ms total)
T2344 001:979 JLINK_ReadReg(FPS0)  returns 0x00000000 (0000ms, 0330ms total)
T2344 001:979 JLINK_ReadReg(FPS1)  returns 0x00000000 (0000ms, 0330ms total)
T2344 001:979 JLINK_ReadReg(FPS2)  returns 0x00000000 (0000ms, 0330ms total)
T2344 001:979 JLINK_ReadReg(FPS3)  returns 0x00000000 (0000ms, 0330ms total)
T2344 001:979 JLINK_ReadReg(FPS4)  returns 0x00000000 (0000ms, 0330ms total)
T2344 001:979 JLINK_ReadReg(FPS5)  returns 0x00000000 (0000ms, 0330ms total)
T2344 001:979 JLINK_ReadReg(FPS6)  returns 0x00000000 (0000ms, 0330ms total)
T2344 001:979 JLINK_ReadReg(FPS7)  returns 0x00000000 (0000ms, 0330ms total)
T2344 001:979 JLINK_ReadReg(FPS8)  returns 0x00000000 (0000ms, 0330ms total)
T2344 001:979 JLINK_ReadReg(FPS9)  returns 0x00000000 (0000ms, 0330ms total)
T2344 001:979 JLINK_ReadReg(FPS10)  returns 0x00000000 (0000ms, 0330ms total)
T2344 001:979 JLINK_ReadReg(FPS11)  returns 0x00000000 (0000ms, 0330ms total)
T2344 001:979 JLINK_ReadReg(FPS12)  returns 0x00000000 (0000ms, 0330ms total)
T2344 001:979 JLINK_ReadReg(FPS13)  returns 0x00000000 (0000ms, 0330ms total)
T2344 001:979 JLINK_ReadReg(FPS14)  returns 0x00000000 (0000ms, 0330ms total)
T2344 001:979 JLINK_ReadReg(FPS15)  returns 0x00000000 (0000ms, 0330ms total)
T2344 001:979 JLINK_ReadReg(FPS16)  returns 0x00000000 (0000ms, 0330ms total)
T2344 001:979 JLINK_ReadReg(FPS17)  returns 0x00000000 (0000ms, 0330ms total)
T2344 001:979 JLINK_ReadReg(FPS18)  returns 0x00000000 (0000ms, 0330ms total)
T2344 001:979 JLINK_ReadReg(FPS19)  returns 0x00000000 (0001ms, 0331ms total)
T2344 001:980 JLINK_ReadReg(FPS20)  returns 0x00000000 (0000ms, 0331ms total)
T2344 001:980 JLINK_ReadReg(FPS21)  returns 0x00000000 (0000ms, 0331ms total)
T2344 001:980 JLINK_ReadReg(FPS22)  returns 0x00000000 (0000ms, 0331ms total)
T2344 001:980 JLINK_ReadReg(FPS23)  returns 0x00000000 (0000ms, 0331ms total)
T2344 001:980 JLINK_ReadReg(FPS24)  returns 0x00000000 (0000ms, 0331ms total)
T2344 001:980 JLINK_ReadReg(FPS25)  returns 0x00000000 (0000ms, 0331ms total)
T2344 001:980 JLINK_ReadReg(FPS26)  returns 0x00000000 (0000ms, 0331ms total)
T2344 001:980 JLINK_ReadReg(FPS27)  returns 0x00000000 (0000ms, 0331ms total)
T2344 001:980 JLINK_ReadReg(FPS28)  returns 0x00000000 (0000ms, 0331ms total)
T2344 001:980 JLINK_ReadReg(FPS29)  returns 0x00000000 (0000ms, 0331ms total)
T2344 001:980 JLINK_ReadReg(FPS30)  returns 0x00000000 (0000ms, 0331ms total)
T2344 001:980 JLINK_ReadReg(FPS31)  returns 0x00000000 (0000ms, 0331ms total)
T3F68 001:980 JLINK_ReadMem (0x20000190, 0x0001 Bytes, ...) -- CPU_ReadMem(64 bytes @ 0x20000180) -- Updating C cache (64 bytes @ 0x20000180) -- Read from C cache (1 bytes @ 0x20000190) - Data: 00  returns 0x00 (0001ms, 0332ms total)
T3F68 001:982 JLINK_ReadMem (0x20000194, 0x0004 Bytes, ...) -- Read from C cache (4 bytes @ 0x20000194) - Data: 00 00 00 00  returns 0x00 (0000ms, 0332ms total)
T3F68 001:982 JLINK_ReadMem (0x20000188, 0x0004 Bytes, ...) -- Read from C cache (4 bytes @ 0x20000188) - Data: 00 00 00 00  returns 0x00 (0000ms, 0332ms total)
T3F68 001:982 JLINK_ReadMem (0x200001A0, 0x0001 Bytes, ...) -- Read from C cache (1 bytes @ 0x200001A0) - Data: 00  returns 0x00 (0000ms, 0332ms total)
T3F68 001:982 JLINK_ReadMem (0x200001A1, 0x0001 Bytes, ...) -- Read from C cache (1 bytes @ 0x200001A1) - Data: 00  returns 0x00 (0000ms, 0332ms total)
T3F68 001:983 JLINK_ReadMem (0x200001A2, 0x0001 Bytes, ...) -- Read from C cache (1 bytes @ 0x200001A2) - Data: 00  returns 0x00 (0000ms, 0332ms total)
T3F68 001:983 JLINK_ReadMem (0x200001A3, 0x0001 Bytes, ...) -- Read from C cache (1 bytes @ 0x200001A3) - Data: 00  returns 0x00 (0000ms, 0332ms total)
T3F68 001:983 JLINK_ReadMem (0x200001A4, 0x0001 Bytes, ...) -- Read from C cache (1 bytes @ 0x200001A4) - Data: 00  returns 0x00 (0000ms, 0332ms total)
T3F68 001:983 JLINK_ReadMem (0x200001A5, 0x0001 Bytes, ...) -- Read from C cache (1 bytes @ 0x200001A5) - Data: 00  returns 0x00 (0000ms, 0332ms total)
T3F68 001:983 JLINK_ReadMem (0x200001A6, 0x0001 Bytes, ...) -- Read from C cache (1 bytes @ 0x200001A6) - Data: 00  returns 0x00 (0000ms, 0332ms total)
T3F68 001:983 JLINK_ReadMem (0x200001A7, 0x0001 Bytes, ...) -- Read from C cache (1 bytes @ 0x200001A7) - Data: 00  returns 0x00 (0000ms, 0332ms total)
T3F68 001:983 JLINK_ReadMem (0x2000019C, 0x0004 Bytes, ...) -- Read from C cache (4 bytes @ 0x2000019C) - Data: 00 00 00 00  returns 0x00 (0001ms, 0333ms total)
T3F68 001:984 JLINK_ReadMem (0x200012E4, 0x0004 Bytes, ...) -- CPU_ReadMem(64 bytes @ 0x200012C0) -- Updating C cache (64 bytes @ 0x200012C0) -- Read from C cache (4 bytes @ 0x200012E4) - Data: 00 00 00 00  returns 0x00 (0001ms, 0334ms total)
T3F68 001:985 JLINK_ReadMem (0x40006400, 0x001C Bytes, ...) -- CPU_ReadMem(28 bytes @ 0x40006400) - Data: 02 00 01 00 0A 0C 00 00 00 00 00 1C 00 00 00 00 ...  returns 0x00 (0000ms, 0334ms total)
T3F68 001:985 JLINK_ReadMem (0x4000641C, 0x0004 Bytes, ...) -- CPU_ReadMem(4 bytes @ 0x4000641C) - Data: 00 00 23 01  returns 0x00 (0001ms, 0335ms total)
T3F68 001:986 JLINK_ReadMem (0x40006580, 0x004C Bytes, ...) -- CPU_ReadMem(76 bytes @ 0x40006580) - Data: 00 00 00 00 00 00 00 00 00 00 00 00 00 00 00 00 ...  returns 0x00 (0001ms, 0336ms total)
T3F68 001:987 JLINK_ReadMem (0x400065CC, 0x0004 Bytes, ...) -- CPU_ReadMem(4 bytes @ 0x400065CC) - Data: 00 00 00 00  returns 0x00 (0000ms, 0336ms total)
T3F68 001:987 JLINK_ReadMem (0x40006600, 0x0004 Bytes, ...) -- CPU_ReadMem(4 bytes @ 0x40006600) - Data: 01 0E 1C 2A  returns 0x00 (0001ms, 0337ms total)
T3F68 001:988 JLINK_ReadMem (0x40006604, 0x0004 Bytes, ...) -- CPU_ReadMem(4 bytes @ 0x40006604) - Data: 00 00 00 00  returns 0x00 (0000ms, 0337ms total)
T3F68 001:988 JLINK_ReadMem (0x4000660C, 0x0004 Bytes, ...) -- CPU_ReadMem(4 bytes @ 0x4000660C) - Data: 00 00 00 00  returns 0x00 (0001ms, 0338ms total)
T3F68 001:989 JLINK_ReadMem (0x40006614, 0x0004 Bytes, ...) -- CPU_ReadMem(4 bytes @ 0x40006614) - Data: 00 00 00 00  returns 0x00 (0000ms, 0338ms total)
T3F68 001:989 JLINK_ReadMem (0x4000661C, 0x0004 Bytes, ...) -- CPU_ReadMem(4 bytes @ 0x4000661C) - Data: 00 00 00 00  returns 0x00 (0001ms, 0339ms total)
T3F68 001:990 JLINK_ReadMem (0x40006640, 0x00DC Bytes, ...) -- CPU_ReadMem(220 bytes @ 0x40006640) - Data: 00 00 00 00 00 00 00 00 00 00 00 00 00 00 00 00 ...  returns 0x00 (0002ms, 0341ms total)
T3F68 001:992 JLINK_ReadMem (0x4000671C, 0x0004 Bytes, ...) -- CPU_ReadMem(4 bytes @ 0x4000671C) - Data: 00 00 00 00  returns 0x00 (0001ms, 0342ms total)
T3F68 001:994 JLINK_ReadMem (0x40000000, 0x0010 Bytes, ...) -- CPU_ReadMem(16 bytes @ 0x40000000) - Data: 00 00 00 00 00 00 00 00 00 00 00 00 00 00 00 00  returns 0x00 (0001ms, 0343ms total)
T3F68 001:995 JLINK_ReadMem (0x40000010, 0x0004 Bytes, ...) -- CPU_ReadMem(4 bytes @ 0x40000010) - Data: 00 00 00 00  returns 0x00 (0000ms, 0343ms total)
T3F68 001:995 JLINK_ReadMem (0x40000018, 0x0014 Bytes, ...) -- CPU_ReadMem(20 bytes @ 0x40000018) - Data: 00 00 00 00 00 00 00 00 00 00 00 00 00 00 00 00 ...  returns 0x00 (0001ms, 0344ms total)
T3F68 001:996 JLINK_ReadMem (0x4000002C, 0x0004 Bytes, ...) -- CPU_ReadMem(4 bytes @ 0x4000002C) - Data: 00 00 00 00  returns 0x00 (0001ms, 0345ms total)
T3F68 001:997 JLINK_ReadMem (0x40000034, 0x000C Bytes, ...) -- CPU_ReadMem(12 bytes @ 0x40000034) - Data: 00 00 00 00 00 00 00 00 00 00 00 00  returns 0x00 (0000ms, 0345ms total)
T3F68 001:997 JLINK_ReadMem (0x40000040, 0x0004 Bytes, ...) -- CPU_ReadMem(4 bytes @ 0x40000040) - Data: 00 00 00 00  returns 0x00 (0001ms, 0346ms total)
T3F68 001:998 JLINK_ReadMem (0x40000048, 0x0008 Bytes, ...) -- CPU_ReadMem(8 bytes @ 0x40000048) - Data: 00 00 00 00 00 00 00 00  returns 0x00 (0000ms, 0346ms total)
T3F68 001:998 JLINK_ReadMem (0x40000050, 0x0004 Bytes, ...) -- CPU_ReadMem(4 bytes @ 0x40000050) - Data: 00 00 00 00  returns 0x00 (0001ms, 0347ms total)
T3F68 001:999 JLINK_ReadMem (0x40003C00, 0x0020 Bytes, ...) -- CPU_ReadMem(32 bytes @ 0x40003C00) - Data: 00 00 00 00 00 00 00 00 00 00 00 00 00 00 00 00 ...  returns 0x00 (0000ms, 0347ms total)
T3F68 001:999 JLINK_ReadMem (0x40003C20, 0x0004 Bytes, ...) -- CPU_ReadMem(4 bytes @ 0x40003C20) - Data: 00 00 00 00  returns 0x00 (0001ms, 0348ms total)
T3F68 002:000 JLINK_ReadMem (0x40013000, 0x0020 Bytes, ...) -- CPU_ReadMem(32 bytes @ 0x40013000) - Data: 00 00 00 00 00 00 00 00 00 00 00 00 00 00 00 00 ...  returns 0x00 (0001ms, 0349ms total)
T3F68 002:001 JLINK_ReadMem (0x40013020, 0x0004 Bytes, ...) -- CPU_ReadMem(4 bytes @ 0x40013020) - Data: 00 00 00 00  returns 0x00 (0000ms, 0349ms total)
T3F68 002:005 JLINK_ReadMem (0x08000AE8, 0x003C Bytes, ...) -- Read from flash cache (60 bytes @ 0x08000AE8) - Data: 53 46 20 F0 07 00 85 46 18 B0 20 B5 FF F7 14 FC ...  returns 0x00 (0000ms, 0349ms total)
T3F68 002:005 JLINK_ReadMem (0x08000B24, 0x003C Bytes, ...) -- Read from flash cache (60 bytes @ 0x08000B24) - Data: 70 47 00 00 10 B5 00 F0 0F F8 00 1D 10 BD 00 BF ...  returns 0x00 (0001ms, 0350ms total)
T3F68 002:006 JLINK_ReadMem (0x08000B60, 0x003C Bytes, ...) -- Read from flash cache (60 bytes @ 0x08000B60) - Data: 04 2B 51 F8 04 3B CC FA 52 F4 D5 1A 20 D1 FC B9 ...  returns 0x00 (0000ms, 0350ms total)
T3F68 002:006 JLINK_ReadMem (0x08000B9C, 0x003C Bytes, ...) -- Read from flash cache (60 bytes @ 0x08000B9C) - Data: CC FA 52 F4 D5 1A 05 D1 00 2C DA D0 30 BC 4F F0 ...  returns 0x00 (0000ms, 0350ms total)
T3F68 002:006 JLINK_ReadMem (0x08000BD8, 0x0028 Bytes, ...) -- Read from flash cache (40 bytes @ 0x08000BD8) - Data: AB BE FE E7 26 00 02 00 70 47 00 00 00 00 00 00 ...  returns 0x00 (0000ms, 0350ms total)
T3F68 002:006 JLINK_ReadMem (0x08000C00, 0x0014 Bytes, ...) -- Read from flash cache (20 bytes @ 0x08000C00) - Data: 44 F6 D3 58 4E F2 10 07 C2 F2 00 01 C4 F2 02 0A ...  returns 0x00 (0000ms, 0350ms total)
T2344 002:280 JLINK_ReadMemU32(0xE0001004, 0x0001 Items, ...) -- CPU_ReadMem(4 bytes @ 0xE0001004) - Data: 16 12 00 00  returns 0x01 (0001ms, 0351ms total)
T2344 002:281 JLINK_WriteU32(0xE0001004, 0x000003FF)  returns 0x00 (0000ms, 0351ms total)
T2344 002:281 JLINK_WriteU32(0xE0001000, 0x0041061F)  returns 0x00 (0001ms, 0352ms total)
T2344 002:282 JLINK_WriteU32(0xE0000E80, 0x0001000F)  returns 0x00 (0000ms, 0352ms total)
T2344 002:282 JLINK_SWO_Control(JLINKARM_SWO_CMD_GET_NUM_BYTES, ...)  returns 0x00 (0000ms, 0352ms total)
T2344 002:282 JLINK_Go() -- CPU_WriteMem(4 bytes @ 0xE0001000) -- CPU_ReadMem(4 bytes @ 0xE0001000) -- CPU_WriteMem(4 bytes @ 0xE0000E80) -- CPU_WriteMem(4 bytes @ 0xE0002008) -- CPU_WriteMem(4 bytes @ 0xE0001004) (0004ms, 0356ms total)
T2344 002:286 JLINK_WriteU32(0xE0001000, 0x0001061F) -- CPU is running -- CPU_WriteMem(4 bytes @ 0xE0001000)  returns 0x00 (0001ms, 0357ms total)
T2344 002:388 JLINK_SWO_Read(..., Offset = 0x00, NumBytes = 0x400000) - Data:  NumBytesRead = 0x00 (0000ms, 0357ms total)
T2344 002:389 JLINK_SWO_Control(JLINKARM_SWO_CMD_FLUSH, ...)  returns 0x00 (0000ms, 0357ms total)
T2344 002:389 JLINK_IsHalted()  returns FALSE (0000ms, 0357ms total)
T2344 002:490 JLINK_SWO_Read(..., Offset = 0x00, NumBytes = 0x400000) - Data:  NumBytesRead = 0x00 (0000ms, 0357ms total)
T2344 002:492 JLINK_SWO_Control(JLINKARM_SWO_CMD_FLUSH, ...)  returns 0x00 (0000ms, 0357ms total)
T2344 002:492 JLINK_IsHalted()  returns FALSE (0000ms, 0357ms total)
T2344 002:593 JLINK_SWO_Read(..., Offset = 0x00, NumBytes = 0x400000) - Data:  NumBytesRead = 0x00 (0000ms, 0357ms total)
T2344 002:595 JLINK_SWO_Control(JLINKARM_SWO_CMD_FLUSH, ...)  returns 0x00 (0000ms, 0357ms total)
T2344 002:595 JLINK_IsHalted()  returns FALSE (0000ms, 0357ms total)
T2344 002:696 JLINK_SWO_Read(..., Offset = 0x00, NumBytes = 0x400000) - Data:  NumBytesRead = 0x00 (0000ms, 0357ms total)
T2344 002:698 JLINK_SWO_Control(JLINKARM_SWO_CMD_FLUSH, ...)  returns 0x00 (0000ms, 0357ms total)
T2344 002:698 JLINK_IsHalted()  returns FALSE (0000ms, 0357ms total)
T2344 002:799 JLINK_SWO_Read(..., Offset = 0x00, NumBytes = 0x400000) - Data:  NumBytesRead = 0x00 (0000ms, 0357ms total)
T2344 002:801 JLINK_SWO_Control(JLINKARM_SWO_CMD_FLUSH, ...)  returns 0x00 (0000ms, 0357ms total)
T2344 002:801 JLINK_ReadMemU32(0xE0001004, 0x0001 Items, ...) -- CPU is running -- CPU_ReadMem(4 bytes @ 0xE0001004) - Data: 16 30 87 05  returns 0x01 (0000ms, 0357ms total)
T3F68 002:801 JLINK_ReadMem (0x20000190, 0x0001 Bytes, ...) -- CPU is running -- CPU_ReadMem(1 bytes @ 0x20000190) - Data: 00  returns 0x00 (0001ms, 0358ms total)
T3F68 002:803 JLINK_ReadMem (0x20000194, 0x0004 Bytes, ...) -- CPU is running -- CPU_ReadMem(4 bytes @ 0x20000194) - Data: 00 00 00 00  returns 0x00 (0000ms, 0358ms total)
T3F68 002:803 JLINK_ReadMem (0x20000188, 0x0004 Bytes, ...) -- CPU is running -- CPU_ReadMem(4 bytes @ 0x20000188) - Data: 00 00 00 00  returns 0x00 (0001ms, 0359ms total)
T3F68 002:804 JLINK_ReadMem (0x200001A0, 0x0001 Bytes, ...) -- CPU is running -- CPU_ReadMem(1 bytes @ 0x200001A0) - Data: 00  returns 0x00 (0001ms, 0360ms total)
T3F68 002:805 JLINK_ReadMem (0x200001A1, 0x0001 Bytes, ...) -- CPU is running -- CPU_ReadMem(1 bytes @ 0x200001A1) - Data: 00  returns 0x00 (0000ms, 0360ms total)
T3F68 002:805 JLINK_ReadMem (0x200001A2, 0x0001 Bytes, ...) -- CPU is running -- CPU_ReadMem(1 bytes @ 0x200001A2) - Data: 00  returns 0x00 (0001ms, 0361ms total)
T3F68 002:806 JLINK_ReadMem (0x200001A3, 0x0001 Bytes, ...) -- CPU is running -- CPU_ReadMem(1 bytes @ 0x200001A3) - Data: 00  returns 0x00 (0001ms, 0362ms total)
T3F68 002:807 JLINK_ReadMem (0x200001A4, 0x0001 Bytes, ...) -- CPU is running -- CPU_ReadMem(1 bytes @ 0x200001A4) - Data: 00  returns 0x00 (0001ms, 0363ms total)
T3F68 002:808 JLINK_ReadMem (0x200001A5, 0x0001 Bytes, ...) -- CPU is running -- CPU_ReadMem(1 bytes @ 0x200001A5) - Data: 00  returns 0x00 (0000ms, 0363ms total)
T3F68 002:809 JLINK_ReadMem (0x200001A6, 0x0001 Bytes, ...) -- CPU is running -- CPU_ReadMem(1 bytes @ 0x200001A6) - Data: 00  returns 0x00 (0000ms, 0363ms total)
T3F68 002:810 JLINK_ReadMem (0x200001A7, 0x0001 Bytes, ...) -- CPU is running -- CPU_ReadMem(1 bytes @ 0x200001A7) - Data: 00  returns 0x00 (0000ms, 0363ms total)
T3F68 002:810 JLINK_ReadMem (0x2000019C, 0x0004 Bytes, ...) -- CPU is running -- CPU_ReadMem(4 bytes @ 0x2000019C) - Data: 00 00 00 00  returns 0x00 (0001ms, 0364ms total)
T3F68 002:811 JLINK_ReadMem (0x200012E4, 0x0004 Bytes, ...) -- CPU is running -- CPU_ReadMem(4 bytes @ 0x200012E4) - Data: 00 00 00 00  returns 0x00 (0000ms, 0364ms total)
T3F68 002:814 JLINK_ReadMem (0x40006400, 0x001C Bytes, ...) -- CPU is running -- CPU_ReadMem(28 bytes @ 0x40006400) - Data: 41 00 01 00 09 0C 00 00 00 00 00 1C 00 00 00 00 ...  returns 0x00 (0001ms, 0365ms total)
T3F68 002:815 JLINK_ReadMem (0x4000641C, 0x0004 Bytes, ...) -- CPU is running -- CPU_ReadMem(4 bytes @ 0x4000641C) - Data: 04 00 78 00  returns 0x00 (0000ms, 0365ms total)
T3F68 002:815 JLINK_ReadMem (0x40006580, 0x004C Bytes, ...) -- CPU is running -- CPU_ReadMem(76 bytes @ 0x40006580) - Data: 28 D1 6B A1 4F D7 11 12 73 68 6B 97 29 D0 2F A8 ...  returns 0x00 (0001ms, 0366ms total)
T3F68 002:816 JLINK_ReadMem (0x400065CC, 0x0004 Bytes, ...) -- CPU is running -- CPU_ReadMem(4 bytes @ 0x400065CC) - Data: 29 F9 2B A1  returns 0x00 (0001ms, 0367ms total)
